T4C94 000:004.160   SEGGER J-Link V8.10b Log File
T4C94 000:004.262   DLL Compiled: Oct  9 2024 15:05:12
T4C94 000:004.268   Logging started @ 2024-10-11 14:09
T4C94 000:004.273   Process: C:\Keil_v5\UV4\UV4.exe
T4C94 000:004.279 - 4.278ms
T4C94 000:004.287 JLINK_SetWarnOutHandler(...)
T4C94 000:004.292 - 0.006ms
T4C94 000:004.299 JLINK_OpenEx(...)
T4C94 000:007.724   Firmware: J-Link OB-RA4M2-Full compiled Oct  9 2024 11:01:59
T4C94 000:008.599   Firmware: J-Link OB-RA4M2-Full compiled Oct  9 2024 11:01:59
T4C94 000:036.242   Hardware: V1.00
T4C94 000:036.258   S/N: 201290205
T4C94 000:036.265   OEM: SEGGER
T4C94 000:036.273   Feature(s): GDB, FlashDL, FlashBP, JFlash, RDI
T4C94 000:037.008   Bootloader: 2021 May 14
T4C94 000:041.257   USB speed mode: Full speed (12 MBit/s)
T4C94 000:041.738   TELNET listener socket opened on port 19021
T4C94 000:041.865   WEBSRV WEBSRV_Init(): Starting webserver thread(s)
T4C94 000:041.923   WEBSRV Failed to put socket into listener state (port 19080)
T4C94 000:042.014   WEBSRV Webserver running on local port 19081
T4C94 000:042.111   Looking for J-Link GUI Server exe at: C:\Keil_v5\ARM\Segger\JLinkGUIServer.exe
T4C94 000:042.210   Looking for J-Link GUI Server exe at: C:\Program Files\SEGGER\JLink\JLinkGUIServer.exe
T4C94 000:042.253   Forking J-Link GUI Server: C:\Program Files\SEGGER\JLink\JLinkGUIServer.exe
T4C94 000:045.949   J-Link GUI Server info: "J-Link GUI server V8.10b "
T4C94 000:046.109 - 41.805ms returns "O.K."
T4C94 000:046.135 JLINK_GetEmuCaps()
T4C94 000:046.143 - 0.006ms returns 0xB8EA5A33
T4C94 000:046.149 JLINK_TIF_GetAvailable(...)
T4C94 000:046.321 - 0.171ms
T4C94 000:046.348 JLINK_SetErrorOutHandler(...)
T4C94 000:046.354 - 0.006ms
T4C94 000:046.373 JLINK_ExecCommand("ProjectFile = "D:\Software\STM32\F405RG\Flash\MDK-ARM\JLinkSettings.ini"", ...). 
T4C94 000:054.797   XML file found at: C:\Users\siriu\AppData\Roaming\SEGGER\JLinkDevices\Devices.xml
T4C94 000:055.295   C:\Users\siriu\AppData\Roaming\SEGGER\JLinkDevices\Devices.xml evaluated successfully.
T4C94 000:055.304     Device entry created:  STM32H750xx
T4C94 000:055.311       ChipInfo:
T4C94 000:055.319         Vendor:          ST
T4C94 000:055.327         Name:            STM32H750xx
T4C94 000:055.335         WorkRAMAddr:     0x24000000
T4C94 000:055.342         WorkRAMSize:     0x00080000
T4C94 000:055.351         Core:            JLINK_CORE_CORTEX_M7
T4C94 000:055.359       FlashBankInfo:
T4C94 000:055.367         Name:            Internal flash 2MB
T4C94 000:055.375         BaseAddr:        0x08000000
T4C94 000:055.383         AlwaysPresent:   1
T4C94 000:055.466         LoaderInfo:
T4C94 000:055.475           Name:            Default
T4C94 000:055.482           MaxSize:         0x00200000
T4C94 000:055.490           Loader:          C:\Users\siriu\AppData\Roaming\SEGGER\JLinkDevices\H750xx\STM32H750xx_2M.elf
T4C94 000:055.498           LoaderType:      FLASH_ALGO_TYPE_OPEN
T4C94 000:055.506       FlashBankInfo:
T4C94 000:055.514         Name:            Exnternal flash
T4C94 000:055.522         BaseAddr:        0x90000000
T4C94 000:055.529         AlwaysPresent:   0
T4C94 000:055.600         LoaderInfo:
T4C94 000:055.611           Name:            External flash W25Q256JV
T4C94 000:055.619           MaxSize:         0x02000000
T4C94 000:055.627           Loader:          C:\Users\siriu\AppData\Roaming\SEGGER\JLinkDevices\H750xx\Flashloader.elf
T4C94 000:055.635           LoaderType:      FLASH_ALGO_TYPE_OPEN
T4C94 000:055.670     Device entry created:  STM32G47x
T4C94 000:055.677       ChipInfo:
T4C94 000:055.684         Vendor:          ST
T4C94 000:055.691         Name:            STM32G47x
T4C94 000:055.699         WorkRAMAddr:     0x20000000
T4C94 000:055.707         WorkRAMSize:     0x00018000
T4C94 000:055.716         Core:            JLINK_CORE_CORTEX_M4
T4C94 000:055.723       FlashBankInfo:
T4C94 000:055.731         Name:            Internal flash
T4C94 000:055.738         BaseAddr:        0x08000000
T4C94 000:055.746         AlwaysPresent:   1
T4C94 000:055.864         LoaderInfo:
T4C94 000:055.873           Name:            Default
T4C94 000:055.881           MaxSize:         0x00080000
T4C94 000:055.889           Loader:          C:\Users\siriu\AppData\Roaming\SEGGER\JLinkDevices\G47x\Flashloader.elf
T4C94 000:055.896           LoaderType:      FLASH_ALGO_TYPE_OPEN
T4C94 000:056.804   Ref file found at: C:\Keil_v5\ARM\Segger\JLinkDevices.ref
T4C94 000:056.895   REF file references invalid XML file: C:\Program Files\SEGGER\JLink\JLinkDevices.xml
T4C94 000:057.549 - 11.174ms returns 0x00
T4C94 000:059.675 JLINK_ExecCommand("Device = STM32F405RGTx", ...). 
T4C94 000:062.106   Device "STM32F405RG" selected.
T4C94 000:062.396 - 2.709ms returns 0x00
T4C94 000:062.407 JLINK_ExecCommand("DisableConnectionTimeout", ...). 
T4C94 000:062.418   ERROR: Unknown command
T4C94 000:062.426 - 0.011ms returns 0x01
T4C94 000:062.432 JLINK_GetHardwareVersion()
T4C94 000:062.439 - 0.005ms returns 10000
T4C94 000:062.445 JLINK_GetDLLVersion()
T4C94 000:062.450 - 0.005ms returns 81002
T4C94 000:062.456 JLINK_GetOEMString(...)
T4C94 000:062.463 JLINK_GetFirmwareString(...)
T4C94 000:062.468 - 0.005ms
T4C94 000:067.336 JLINK_GetDLLVersion()
T4C94 000:067.347 - 0.010ms returns 81002
T4C94 000:067.353 JLINK_GetCompileDateTime()
T4C94 000:067.358 - 0.005ms
T4C94 000:070.125 JLINK_GetFirmwareString(...)
T4C94 000:070.136 - 0.011ms
T4C94 000:071.799 JLINK_GetHardwareVersion()
T4C94 000:071.810 - 0.010ms returns 10000
T4C94 000:073.484 JLINK_GetSN()
T4C94 000:073.496 - 0.011ms returns 201290205
T4C94 000:075.201 JLINK_GetOEMString(...)
T4C94 000:078.589 JLINK_TIF_Select(JLINKARM_TIF_SWD)
T4C94 000:079.342 - 0.752ms returns 0x00
T4C94 000:079.377 JLINK_HasError()
T4C94 000:079.392 JLINK_SetSpeed(5000)
T4C94 000:079.716 - 0.325ms
T4C94 000:079.747 JLINK_GetId()
T4C94 000:081.814   InitTarget() start
T4C94 000:081.831    J-Link Script File: Executing InitTarget()
T4C94 000:083.713   SWD selected. Executing JTAG -> SWD switching sequence.
T4C94 000:087.274   DAP initialized successfully.
T4C94 000:094.838   InitTarget() end - Took 10.9ms
T4C94 000:097.224   Found SW-DP with ID 0x2BA01477
T4C94 000:101.077   DPIDR: 0x2BA01477
T4C94 000:102.809   CoreSight SoC-400 or earlier
T4C94 000:104.835   Scanning AP map to find all available APs
T4C94 000:107.302   AP[1]: Stopped AP scan as end of AP map has been reached
T4C94 000:109.019   AP[0]: AHB-AP (IDR: 0x24770011, ADDR: 0x00000000)
T4C94 000:110.846   Iterating through AP map to find AHB-AP to use
T4C94 000:113.426   AP[0]: Core found
T4C94 000:115.088   AP[0]: AHB-AP ROM base: 0xE00FF000
T4C94 000:117.173   CPUID register: 0x410FC241. Implementer code: 0x41 (ARM)
T4C94 000:118.848   Found Cortex-M4 r0p1, Little endian.
T4C94 000:119.374   -- Max. mem block: 0x0001D558
T4C94 000:120.085   CPU_ReadMem(4 bytes @ 0xE000EDF0)
T4C94 000:120.387   CPU_ReadMem(4 bytes @ 0xE0002000)
T4C94 000:122.463   FPUnit: 6 code (BP) slots and 2 literal slots
T4C94 000:122.478   CPU_ReadMem(4 bytes @ 0xE000EDFC)
T4C94 000:122.879   CPU_ReadMem(4 bytes @ 0xE0001000)
T4C94 000:123.260   CPU_WriteMem(4 bytes @ 0xE0001000)
T4C94 000:123.561   CPU_ReadMem(4 bytes @ 0xE000ED88)
T4C94 000:123.837   CPU_WriteMem(4 bytes @ 0xE000ED88)
T4C94 000:124.143   CPU_ReadMem(4 bytes @ 0xE000ED88)
T4C94 000:124.428   CPU_WriteMem(4 bytes @ 0xE000ED88)
T4C94 000:127.114   CoreSight components:
T4C94 000:128.895   ROMTbl[0] @ E00FF000
T4C94 000:128.911   CPU_ReadMem(64 bytes @ 0xE00FF000)
T4C94 000:129.564   CPU_ReadMem(32 bytes @ 0xE000EFE0)
T4C94 000:131.762   [0][0]: E000E000 CID B105E00D PID 000BB00C SCS-M7
T4C94 000:131.776   CPU_ReadMem(32 bytes @ 0xE0001FE0)
T4C94 000:134.132   [0][1]: E0001000 CID B105E00D PID 003BB002 DWT
T4C94 000:134.147   CPU_ReadMem(32 bytes @ 0xE0002FE0)
T4C94 000:136.310   [0][2]: E0002000 CID B105E00D PID 002BB003 FPB
T4C94 000:136.325   CPU_ReadMem(32 bytes @ 0xE0000FE0)
T4C94 000:138.529   [0][3]: E0000000 CID B105E00D PID 003BB001 ITM
T4C94 000:138.545   CPU_ReadMem(32 bytes @ 0xE0040FE0)
T4C94 000:140.760   [0][4]: E0040000 CID B105900D PID 000BB9A1 TPIU
T4C94 000:140.775   CPU_ReadMem(32 bytes @ 0xE0041FE0)
T4C94 000:143.010   [0][5]: E0041000 CID B105900D PID 000BB925 ETM
T4C94 000:143.314 - 63.566ms returns 0x2BA01477
T4C94 000:143.340 JLINK_GetDLLVersion()
T4C94 000:143.346 - 0.006ms returns 81002
T4C94 000:143.353 JLINK_CORE_GetFound()
T4C94 000:143.359 - 0.005ms returns 0xE0000FF
T4C94 000:143.366 JLINK_GetDebugInfo(0x100 = JLINKARM_ROM_TABLE_ADDR_INDEX)
T4C94 000:143.371   Value=0xE00FF000
T4C94 000:143.379 - 0.013ms returns 0
T4C94 000:145.068 JLINK_GetDebugInfo(0x100 = JLINKARM_ROM_TABLE_ADDR_INDEX)
T4C94 000:145.078   Value=0xE00FF000
T4C94 000:145.086 - 0.018ms returns 0
T4C94 000:145.092 JLINK_GetDebugInfo(0x101 = JLINKARM_DEBUG_INFO_ETM_ADDR_INDEX)
T4C94 000:145.097   Value=0xE0041000
T4C94 000:145.104 - 0.012ms returns 0
T4C94 000:145.113 JLINK_ReadMemEx(0xE0041FD0, 0x20 Bytes, Flags = 0x02000004)
T4C94 000:145.129   CPU_ReadMem(32 bytes @ 0xE0041FD0)
T4C94 000:145.672   Data:  04 00 00 00 00 00 00 00 00 00 00 00 00 00 00 00 ...
T4C94 000:145.685 - 0.572ms returns 32 (0x20)
T4C94 000:145.708 JLINK_GetDebugInfo(0x102 = JLINKARM_DEBUG_INFO_MTB_ADDR_INDEX)
T4C94 000:145.714   Value=0x00000000
T4C94 000:145.722 - 0.014ms returns 0
T4C94 000:145.728 JLINK_GetDebugInfo(0x103 = JLINKARM_DEBUG_INFO_TPIU_ADDR_INDEX)
T4C94 000:145.733   Value=0xE0040000
T4C94 000:145.741 - 0.012ms returns 0
T4C94 000:145.747 JLINK_GetDebugInfo(0x104 = JLINKARM_DEBUG_INFO_ITM_ADDR_INDEX)
T4C94 000:145.751   Value=0xE0000000
T4C94 000:145.759 - 0.012ms returns 0
T4C94 000:145.764 JLINK_GetDebugInfo(0x105 = JLINKARM_DEBUG_INFO_DWT_ADDR_INDEX)
T4C94 000:145.769   Value=0xE0001000
T4C94 000:145.777 - 0.012ms returns 0
T4C94 000:145.782 JLINK_GetDebugInfo(0x106 = JLINKARM_DEBUG_INFO_FPB_ADDR_INDEX)
T4C94 000:145.787   Value=0xE0002000
T4C94 000:145.794 - 0.012ms returns 0
T4C94 000:145.800 JLINK_GetDebugInfo(0x107 = JLINKARM_DEBUG_INFO_NVIC_ADDR_INDEX)
T4C94 000:145.805   Value=0xE000E000
T4C94 000:145.812 - 0.012ms returns 0
T4C94 000:145.818 JLINK_GetDebugInfo(0x10C = JLINKARM_DEBUG_INFO_DBG_ADDR_INDEX)
T4C94 000:145.823   Value=0xE000EDF0
T4C94 000:145.830 - 0.012ms returns 0
T4C94 000:145.836 JLINK_GetDebugInfo(0x01 = Unknown)
T4C94 000:145.841   Value=0x00000001
T4C94 000:145.848 - 0.012ms returns 0
T4C94 000:145.854 JLINK_ReadMemU32(0xE000ED00, 0x1 Items)
T4C94 000:145.863   CPU_ReadMem(4 bytes @ 0xE000ED00)
T4C94 000:146.258   Data:  41 C2 0F 41
T4C94 000:146.271   Debug reg: CPUID
T4C94 000:146.279 - 0.425ms returns 1 (0x1)
T4C94 000:146.301 JLINK_GetDebugInfo(0x10F = JLINKARM_DEBUG_INFO_HAS_CORTEX_M_SECURITY_EXT_INDEX)
T4C94 000:146.307   Value=0x00000000
T4C94 000:146.315 - 0.014ms returns 0
T4C94 000:146.321 JLINK_HasError()
T4C94 000:146.328 JLINK_SetResetType(JLINKARM_CM3_RESET_TYPE_RESETPIN)
T4C94 000:146.333 - 0.005ms returns JLINKARM_CM3_RESET_TYPE_NORMAL
T4C94 000:146.339 JLINK_Reset()
T4C94 000:146.381   JLINK_GetResetTypeDesc
T4C94 000:146.390   - 0.009ms
T4C94 000:148.152   Reset type: RESETPIN (https://wiki.segger.com/J-Link_Reset_Strategies)
T4C94 000:148.167   CPU is running
T4C94 000:148.176   CPU_WriteMem(4 bytes @ 0xE000EDF0)
T4C94 000:148.569   CPU is running
T4C94 000:148.580   CPU_WriteMem(4 bytes @ 0xE000EDFC)
T4C94 000:150.800   Reset: Halt core after reset via DEMCR.VC_CORERESET.
T4C94 000:152.492   Reset: Reset device via reset pin
T4C94 000:277.279   CPU_WriteMem(4 bytes @ 0xE000EDFC)
T4C94 000:282.597   CPU_ReadMem(4 bytes @ 0xE000EDF0)
T4C94 000:283.013   CPU_WriteMem(4 bytes @ 0xE0002000)
T4C94 000:283.383   CPU_ReadMem(4 bytes @ 0xE000EDFC)
T4C94 000:283.768   CPU_ReadMem(4 bytes @ 0xE0001000)
T4C94 000:284.056 - 137.716ms
T4C94 000:284.087 JLINK_Halt()
T4C94 000:284.094 - 0.006ms returns 0x00
T4C94 000:284.101 JLINK_ReadMemU32(0xE000EDF0, 0x1 Items)
T4C94 000:284.113   CPU_ReadMem(4 bytes @ 0xE000EDF0)
T4C94 000:284.570   Data:  03 00 03 00
T4C94 000:284.581   Debug reg: DHCSR
T4C94 000:284.589 - 0.487ms returns 1 (0x1)
T4C94 000:284.621 JLINK_WriteU32(0xE000EDF0, 0xA05F0003)
T4C94 000:284.628   Debug reg: DHCSR
T4C94 000:284.792   CPU_WriteMem(4 bytes @ 0xE000EDF0)
T4C94 000:285.084 - 0.463ms returns 0 (0x00000000)
T4C94 000:285.111 JLINK_WriteU32(0xE000EDFC, 0x01000000)
T4C94 000:285.118   Debug reg: DEMCR
T4C94 000:285.130   CPU_WriteMem(4 bytes @ 0xE000EDFC)
T4C94 000:285.567 - 0.455ms returns 0 (0x00000000)
T4C94 000:292.895 JLINK_GetHWStatus(...)
T4C94 000:293.069 - 0.173ms returns 0
T4C94 000:297.983 JLINK_GetNumBPUnits(Type = 0xFFFFFF00)
T4C94 000:297.996 - 0.012ms returns 0x06
T4C94 000:298.002 JLINK_GetNumBPUnits(Type = 0xF0)
T4C94 000:298.011 - 0.009ms returns 0x2000
T4C94 000:298.018 JLINK_GetNumWPUnits()
T4C94 000:298.023 - 0.005ms returns 4
T4C94 000:302.806 JLINK_GetSpeed()
T4C94 000:302.817 - 0.010ms returns 4000
T4C94 000:306.024 JLINK_ReadMemU32(0xE000E004, 0x1 Items)
T4C94 000:306.041   CPU_ReadMem(4 bytes @ 0xE000E004)
T4C94 000:306.386   Data:  02 00 00 00
T4C94 000:306.397 - 0.372ms returns 1 (0x1)
T4C94 000:306.415 JLINK_ReadMemU32(0xE000E004, 0x1 Items)
T4C94 000:306.426   CPU_ReadMem(4 bytes @ 0xE000E004)
T4C94 000:306.764   Data:  02 00 00 00
T4C94 000:306.778 - 0.363ms returns 1 (0x1)
T4C94 000:306.801 JLINK_WriteMemEx(0xE0001000, 0x0000001C Bytes, Flags = 0x02000004)
T4C94 000:306.807   Data:  01 00 00 00 00 00 00 00 00 00 00 00 00 00 00 00 ...
T4C94 000:306.819   CPU_WriteMem(28 bytes @ 0xE0001000)
T4C94 000:307.215 - 0.413ms returns 0x1C
T4C94 000:307.242 JLINK_Halt()
T4C94 000:307.249 - 0.006ms returns 0x00
T4C94 000:307.255 JLINK_IsHalted()
T4C94 000:307.260 - 0.005ms returns TRUE
T4C94 000:309.681 JLINK_WriteMem(0x20000000, 0x184 Bytes, ...)
T4C94 000:309.690   Data:  00 BE 0A E0 0D 78 2D 06 68 40 08 24 40 00 00 D3 ...
T4C94 000:309.848   CPU_WriteMem(388 bytes @ 0x20000000)
T4C94 000:311.933 - 2.251ms returns 0x184
T4C94 000:311.982 JLINK_HasError()
T4C94 000:311.996 JLINK_WriteReg(R0, 0x08000000)
T4C94 000:312.003 - 0.011ms returns 0
T4C94 000:312.010 JLINK_WriteReg(R1, 0x00B71B00)
T4C94 000:312.015 - 0.005ms returns 0
T4C94 000:312.021 JLINK_WriteReg(R2, 0x00000002)
T4C94 000:312.026 - 0.005ms returns 0
T4C94 000:312.032 JLINK_WriteReg(R3, 0x00000000)
T4C94 000:312.037 - 0.005ms returns 0
T4C94 000:312.043 JLINK_WriteReg(R4, 0x00000000)
T4C94 000:312.048 - 0.005ms returns 0
T4C94 000:312.054 JLINK_WriteReg(R5, 0x00000000)
T4C94 000:312.059 - 0.005ms returns 0
T4C94 000:312.065 JLINK_WriteReg(R6, 0x00000000)
T4C94 000:312.070 - 0.005ms returns 0
T4C94 000:312.076 JLINK_WriteReg(R7, 0x00000000)
T4C94 000:312.081 - 0.005ms returns 0
T4C94 000:312.088 JLINK_WriteReg(R8, 0x00000000)
T4C94 000:312.093 - 0.006ms returns 0
T4C94 000:312.099 JLINK_WriteReg(R9, 0x20000180)
T4C94 000:312.104 - 0.005ms returns 0
T4C94 000:312.109 JLINK_WriteReg(R10, 0x00000000)
T4C94 000:312.114 - 0.005ms returns 0
T4C94 000:312.120 JLINK_WriteReg(R11, 0x00000000)
T4C94 000:312.125 - 0.005ms returns 0
T4C94 000:312.131 JLINK_WriteReg(R12, 0x00000000)
T4C94 000:312.136 - 0.005ms returns 0
T4C94 000:312.142 JLINK_WriteReg(R13 (SP), 0x20001000)
T4C94 000:312.147 - 0.005ms returns 0
T4C94 000:312.153 JLINK_WriteReg(R14, 0x20000001)
T4C94 000:312.158 - 0.005ms returns 0
T4C94 000:312.165 JLINK_WriteReg(R15 (PC), 0x20000054)
T4C94 000:312.170 - 0.006ms returns 0
T4C94 000:312.176 JLINK_WriteReg(XPSR, 0x01000000)
T4C94 000:312.181 - 0.005ms returns 0
T4C94 000:312.187 JLINK_WriteReg(MSP, 0x20001000)
T4C94 000:312.192 - 0.005ms returns 0
T4C94 000:312.198 JLINK_WriteReg(PSP, 0x20001000)
T4C94 000:312.203 - 0.004ms returns 0
T4C94 000:312.208 JLINK_WriteReg(CFBP, 0x00000000)
T4C94 000:312.213 - 0.005ms returns 0
T4C94 000:312.219 JLINK_SetBPEx(Addr = 0x20000000, Type = 0xFFFFFFF2)
T4C94 000:312.228   CPU_ReadMem(2 bytes @ 0x20000000)
T4C94 000:312.570 - 0.350ms returns 0x00000001
T4C94 000:312.590 JLINK_Go()
T4C94 000:312.598   CPU_WriteMem(2 bytes @ 0x20000000)
T4C94 000:312.893   CPU_ReadMem(4 bytes @ 0xE0001000)
T4C94 000:313.254   CPU_WriteMem(4 bytes @ 0xE0002008)
T4C94 000:313.311   CPU_WriteMem(4 bytes @ 0xE000200C)
T4C94 000:313.318   CPU_WriteMem(4 bytes @ 0xE0002010)
T4C94 000:313.326   CPU_WriteMem(4 bytes @ 0xE0002014)
T4C94 000:313.333   CPU_WriteMem(4 bytes @ 0xE0002018)
T4C94 000:313.340   CPU_WriteMem(4 bytes @ 0xE000201C)
T4C94 000:314.469   CPU_WriteMem(4 bytes @ 0xE0001004)
T4C94 000:319.188   Memory map 'after startup completion point' is active
T4C94 000:319.203 - 6.612ms
T4C94 000:319.225 JLINK_IsHalted()
T4C94 000:322.029   CPU_ReadMem(2 bytes @ 0x20000000)
T4C94 000:322.383 - 3.157ms returns TRUE
T4C94 000:322.400 JLINK_ReadReg(R15 (PC))
T4C94 000:322.408 - 0.008ms returns 0x20000000
T4C94 000:322.415 JLINK_ClrBPEx(BPHandle = 0x00000001)
T4C94 000:322.421 - 0.006ms returns 0x00
T4C94 000:322.427 JLINK_ReadReg(R0)
T4C94 000:322.432 - 0.005ms returns 0x00000000
T4C94 000:322.652 JLINK_WriteMem(0x20000184, 0x27C Bytes, ...)
T4C94 000:322.661   Data:  D0 08 00 20 9D 01 00 08 E5 EE 0F 08 35 EE 0F 08 ...
T4C94 000:322.676   CPU_WriteMem(636 bytes @ 0x20000184)
T4C94 000:325.698 - 3.045ms returns 0x27C
T4C94 000:325.714 JLINK_WriteMem(0x20000400, 0x184 Bytes, ...)
T4C94 000:325.721   Data:  65 78 74 29 0D 0A 20 20 34 20 20 20 30 34 20 20 ...
T4C94 000:325.733   CPU_WriteMem(388 bytes @ 0x20000400)
T4C94 000:327.789 - 2.074ms returns 0x184
T4C94 000:327.817 JLINK_HasError()
T4C94 000:327.826 JLINK_WriteReg(R0, 0x08000000)
T4C94 000:327.832 - 0.007ms returns 0
T4C94 000:327.839 JLINK_WriteReg(R1, 0x00000400)
T4C94 000:327.844 - 0.005ms returns 0
T4C94 000:327.850 JLINK_WriteReg(R2, 0x20000184)
T4C94 000:327.855 - 0.005ms returns 0
T4C94 000:327.861 JLINK_WriteReg(R3, 0x00000000)
T4C94 000:327.866 - 0.005ms returns 0
T4C94 000:327.872 JLINK_WriteReg(R4, 0x00000000)
T4C94 000:327.877 - 0.005ms returns 0
T4C94 000:327.882 JLINK_WriteReg(R5, 0x00000000)
T4C94 000:327.888 - 0.005ms returns 0
T4C94 000:327.893 JLINK_WriteReg(R6, 0x00000000)
T4C94 000:327.898 - 0.005ms returns 0
T4C94 000:327.904 JLINK_WriteReg(R7, 0x00000000)
T4C94 000:327.909 - 0.005ms returns 0
T4C94 000:327.915 JLINK_WriteReg(R8, 0x00000000)
T4C94 000:327.920 - 0.005ms returns 0
T4C94 000:327.926 JLINK_WriteReg(R9, 0x20000180)
T4C94 000:327.931 - 0.005ms returns 0
T4C94 000:327.937 JLINK_WriteReg(R10, 0x00000000)
T4C94 000:327.942 - 0.005ms returns 0
T4C94 000:327.947 JLINK_WriteReg(R11, 0x00000000)
T4C94 000:327.952 - 0.005ms returns 0
T4C94 000:327.958 JLINK_WriteReg(R12, 0x00000000)
T4C94 000:327.963 - 0.005ms returns 0
T4C94 000:327.969 JLINK_WriteReg(R13 (SP), 0x20001000)
T4C94 000:327.974 - 0.005ms returns 0
T4C94 000:327.980 JLINK_WriteReg(R14, 0x20000001)
T4C94 000:327.985 - 0.005ms returns 0
T4C94 000:327.991 JLINK_WriteReg(R15 (PC), 0x2000010C)
T4C94 000:327.996 - 0.005ms returns 0
T4C94 000:328.002 JLINK_WriteReg(XPSR, 0x01000000)
T4C94 000:328.007 - 0.005ms returns 0
T4C94 000:328.013 JLINK_WriteReg(MSP, 0x20001000)
T4C94 000:328.018 - 0.005ms returns 0
T4C94 000:328.024 JLINK_WriteReg(PSP, 0x20001000)
T4C94 000:328.029 - 0.005ms returns 0
T4C94 000:328.034 JLINK_WriteReg(CFBP, 0x00000000)
T4C94 000:328.039 - 0.005ms returns 0
T4C94 000:328.046 JLINK_SetBPEx(Addr = 0x20000000, Type = 0xFFFFFFF2)
T4C94 000:328.051 - 0.005ms returns 0x00000002
T4C94 000:328.057 JLINK_Go()
T4C94 000:328.067   CPU_ReadMem(4 bytes @ 0xE0001000)
T4C94 000:330.853 - 2.795ms
T4C94 000:330.878 JLINK_IsHalted()
T4C94 000:331.148 - 0.269ms returns FALSE
T4C94 000:331.169 JLINK_HasError()
T4C94 000:339.188 JLINK_IsHalted()
T4C94 000:341.772   CPU_ReadMem(2 bytes @ 0x20000000)
T4C94 000:342.128 - 2.940ms returns TRUE
T4C94 000:342.154 JLINK_ReadReg(R15 (PC))
T4C94 000:342.162 - 0.008ms returns 0x20000000
T4C94 000:342.169 JLINK_ClrBPEx(BPHandle = 0x00000002)
T4C94 000:342.174 - 0.005ms returns 0x00
T4C94 000:342.181 JLINK_ReadReg(R0)
T4C94 000:342.187 - 0.007ms returns 0x00000000
T4C94 000:342.621 JLINK_WriteMem(0x20000184, 0x27C Bytes, ...)
T4C94 000:342.632   Data:  36 20 20 53 4F 20 20 28 53 68 69 66 74 20 4F 75 ...
T4C94 000:342.650   CPU_WriteMem(636 bytes @ 0x20000184)
T4C94 000:345.695 - 3.073ms returns 0x27C
T4C94 000:345.720 JLINK_WriteMem(0x20000400, 0x184 Bytes, ...)
T4C94 000:345.726   Data:  46 20 20 20 30 33 37 20 20 55 53 20 20 28 55 6E ...
T4C94 000:345.738   CPU_WriteMem(388 bytes @ 0x20000400)
T4C94 000:347.620 - 1.900ms returns 0x184
T4C94 000:347.644 JLINK_HasError()
T4C94 000:347.652 JLINK_WriteReg(R0, 0x08000400)
T4C94 000:347.659 - 0.007ms returns 0
T4C94 000:347.665 JLINK_WriteReg(R1, 0x00000400)
T4C94 000:347.670 - 0.005ms returns 0
T4C94 000:347.677 JLINK_WriteReg(R2, 0x20000184)
T4C94 000:347.682 - 0.005ms returns 0
T4C94 000:347.688 JLINK_WriteReg(R3, 0x00000000)
T4C94 000:347.693 - 0.005ms returns 0
T4C94 000:347.699 JLINK_WriteReg(R4, 0x00000000)
T4C94 000:347.704 - 0.005ms returns 0
T4C94 000:347.710 JLINK_WriteReg(R5, 0x00000000)
T4C94 000:347.715 - 0.005ms returns 0
T4C94 000:347.721 JLINK_WriteReg(R6, 0x00000000)
T4C94 000:347.726 - 0.005ms returns 0
T4C94 000:347.732 JLINK_WriteReg(R7, 0x00000000)
T4C94 000:347.737 - 0.005ms returns 0
T4C94 000:347.743 JLINK_WriteReg(R8, 0x00000000)
T4C94 000:347.748 - 0.005ms returns 0
T4C94 000:347.754 JLINK_WriteReg(R9, 0x20000180)
T4C94 000:347.759 - 0.005ms returns 0
T4C94 000:347.765 JLINK_WriteReg(R10, 0x00000000)
T4C94 000:347.771 - 0.005ms returns 0
T4C94 000:347.776 JLINK_WriteReg(R11, 0x00000000)
T4C94 000:347.781 - 0.005ms returns 0
T4C94 000:347.787 JLINK_WriteReg(R12, 0x00000000)
T4C94 000:347.792 - 0.005ms returns 0
T4C94 000:347.798 JLINK_WriteReg(R13 (SP), 0x20001000)
T4C94 000:347.803 - 0.005ms returns 0
T4C94 000:347.809 JLINK_WriteReg(R14, 0x20000001)
T4C94 000:347.814 - 0.005ms returns 0
T4C94 000:347.820 JLINK_WriteReg(R15 (PC), 0x2000010C)
T4C94 000:347.825 - 0.005ms returns 0
T4C94 000:347.831 JLINK_WriteReg(XPSR, 0x01000000)
T4C94 000:347.836 - 0.005ms returns 0
T4C94 000:347.842 JLINK_WriteReg(MSP, 0x20001000)
T4C94 000:347.847 - 0.005ms returns 0
T4C94 000:347.853 JLINK_WriteReg(PSP, 0x20001000)
T4C94 000:347.858 - 0.005ms returns 0
T4C94 000:347.863 JLINK_WriteReg(CFBP, 0x00000000)
T4C94 000:347.869 - 0.005ms returns 0
T4C94 000:347.875 JLINK_SetBPEx(Addr = 0x20000000, Type = 0xFFFFFFF2)
T4C94 000:347.881 - 0.005ms returns 0x00000003
T4C94 000:347.887 JLINK_Go()
T4C94 000:347.897   CPU_ReadMem(4 bytes @ 0xE0001000)
T4C94 000:350.582 - 2.695ms
T4C94 000:350.610 JLINK_IsHalted()
T4C94 000:351.002 - 0.391ms returns FALSE
T4C94 000:351.022 JLINK_HasError()
T4C94 000:352.200 JLINK_IsHalted()
T4C94 000:352.564 - 0.363ms returns FALSE
T4C94 000:352.587 JLINK_HasError()
T4C94 000:354.200 JLINK_IsHalted()
T4C94 000:354.561 - 0.359ms returns FALSE
T4C94 000:354.582 JLINK_HasError()
T4C94 000:356.203 JLINK_IsHalted()
T4C94 000:358.902   CPU_ReadMem(2 bytes @ 0x20000000)
T4C94 000:359.208 - 3.004ms returns TRUE
T4C94 000:359.240 JLINK_ReadReg(R15 (PC))
T4C94 000:359.249 - 0.008ms returns 0x20000000
T4C94 000:359.255 JLINK_ClrBPEx(BPHandle = 0x00000003)
T4C94 000:359.261 - 0.006ms returns 0x00
T4C94 000:359.268 JLINK_ReadReg(R0)
T4C94 000:359.273 - 0.005ms returns 0x00000000
T4C94 000:359.727 JLINK_WriteMem(0x20000184, 0x27C Bytes, ...)
T4C94 000:359.737   Data:  20 20 20 30 36 32 20 20 32 0D 0A 20 35 31 20 20 ...
T4C94 000:359.750   CPU_WriteMem(636 bytes @ 0x20000184)
T4C94 000:362.818 - 3.091ms returns 0x27C
T4C94 000:362.849 JLINK_WriteMem(0x20000400, 0x184 Bytes, ...)
T4C94 000:362.856   Data:  0D 0A 20 38 34 20 20 20 35 34 20 20 20 31 32 34 ...
T4C94 000:362.868   CPU_WriteMem(388 bytes @ 0x20000400)
T4C94 000:364.933 - 2.084ms returns 0x184
T4C94 000:364.962 JLINK_HasError()
T4C94 000:364.971 JLINK_WriteReg(R0, 0x08000800)
T4C94 000:364.978 - 0.007ms returns 0
T4C94 000:364.985 JLINK_WriteReg(R1, 0x00000400)
T4C94 000:364.990 - 0.005ms returns 0
T4C94 000:364.997 JLINK_WriteReg(R2, 0x20000184)
T4C94 000:365.002 - 0.005ms returns 0
T4C94 000:365.009 JLINK_WriteReg(R3, 0x00000000)
T4C94 000:365.014 - 0.005ms returns 0
T4C94 000:365.020 JLINK_WriteReg(R4, 0x00000000)
T4C94 000:365.029 - 0.008ms returns 0
T4C94 000:365.038 JLINK_WriteReg(R5, 0x00000000)
T4C94 000:365.043 - 0.005ms returns 0
T4C94 000:365.050 JLINK_WriteReg(R6, 0x00000000)
T4C94 000:365.056 - 0.005ms returns 0
T4C94 000:365.062 JLINK_WriteReg(R7, 0x00000000)
T4C94 000:365.067 - 0.005ms returns 0
T4C94 000:365.074 JLINK_WriteReg(R8, 0x00000000)
T4C94 000:365.079 - 0.005ms returns 0
T4C94 000:365.085 JLINK_WriteReg(R9, 0x20000180)
T4C94 000:365.090 - 0.005ms returns 0
T4C94 000:365.097 JLINK_WriteReg(R10, 0x00000000)
T4C94 000:365.102 - 0.005ms returns 0
T4C94 000:365.109 JLINK_WriteReg(R11, 0x00000000)
T4C94 000:365.114 - 0.005ms returns 0
T4C94 000:365.121 JLINK_WriteReg(R12, 0x00000000)
T4C94 000:365.126 - 0.005ms returns 0
T4C94 000:365.132 JLINK_WriteReg(R13 (SP), 0x20001000)
T4C94 000:365.137 - 0.005ms returns 0
T4C94 000:365.144 JLINK_WriteReg(R14, 0x20000001)
T4C94 000:365.149 - 0.005ms returns 0
T4C94 000:365.156 JLINK_WriteReg(R15 (PC), 0x2000010C)
T4C94 000:365.161 - 0.005ms returns 0
T4C94 000:365.168 JLINK_WriteReg(XPSR, 0x01000000)
T4C94 000:365.173 - 0.005ms returns 0
T4C94 000:365.179 JLINK_WriteReg(MSP, 0x20001000)
T4C94 000:365.184 - 0.005ms returns 0
T4C94 000:365.191 JLINK_WriteReg(PSP, 0x20001000)
T4C94 000:365.196 - 0.005ms returns 0
T4C94 000:365.202 JLINK_WriteReg(CFBP, 0x00000000)
T4C94 000:365.209 - 0.006ms returns 0
T4C94 000:365.216 JLINK_SetBPEx(Addr = 0x20000000, Type = 0xFFFFFFF2)
T4C94 000:365.222 - 0.006ms returns 0x00000004
T4C94 000:365.228 JLINK_Go()
T4C94 000:365.240   CPU_ReadMem(4 bytes @ 0xE0001000)
T4C94 000:367.981 - 2.752ms
T4C94 000:368.008 JLINK_IsHalted()
T4C94 000:368.376 - 0.367ms returns FALSE
T4C94 000:368.401 JLINK_HasError()
T4C94 000:370.215 JLINK_IsHalted()
T4C94 000:370.626 - 0.410ms returns FALSE
T4C94 000:370.647 JLINK_HasError()
T4C94 000:372.218 JLINK_IsHalted()
T4C94 000:374.900   CPU_ReadMem(2 bytes @ 0x20000000)
T4C94 000:375.256 - 3.037ms returns TRUE
T4C94 000:375.283 JLINK_ReadReg(R15 (PC))
T4C94 000:375.291 - 0.008ms returns 0x20000000
T4C94 000:375.297 JLINK_ClrBPEx(BPHandle = 0x00000004)
T4C94 000:375.303 - 0.005ms returns 0x00
T4C94 000:375.309 JLINK_ReadReg(R0)
T4C94 000:375.314 - 0.005ms returns 0x00000000
T4C94 000:375.750 JLINK_WriteMem(0x20000184, 0x27C Bytes, ...)
T4C94 000:375.759   Data:  36 38 20 20 20 31 35 30 20 20 68 0D 0A 31 30 35 ...
T4C94 000:375.771   CPU_WriteMem(636 bytes @ 0x20000184)
T4C94 000:378.692 - 2.941ms returns 0x27C
T4C94 000:378.720 JLINK_WriteMem(0x20000400, 0x184 Bytes, ...)
T4C94 000:378.726   Data:  20 20 45 54 58 20 28 45 6E 64 20 6F 66 20 54 65 ...
T4C94 000:378.738   CPU_WriteMem(388 bytes @ 0x20000400)
T4C94 000:380.815 - 2.095ms returns 0x184
T4C94 000:380.841 JLINK_HasError()
T4C94 000:380.848 JLINK_WriteReg(R0, 0x08000C00)
T4C94 000:380.855 - 0.006ms returns 0
T4C94 000:380.861 JLINK_WriteReg(R1, 0x00000400)
T4C94 000:380.867 - 0.005ms returns 0
T4C94 000:380.873 JLINK_WriteReg(R2, 0x20000184)
T4C94 000:380.878 - 0.005ms returns 0
T4C94 000:380.884 JLINK_WriteReg(R3, 0x00000000)
T4C94 000:380.889 - 0.005ms returns 0
T4C94 000:380.895 JLINK_WriteReg(R4, 0x00000000)
T4C94 000:380.900 - 0.005ms returns 0
T4C94 000:380.906 JLINK_WriteReg(R5, 0x00000000)
T4C94 000:380.911 - 0.005ms returns 0
T4C94 000:380.917 JLINK_WriteReg(R6, 0x00000000)
T4C94 000:380.922 - 0.005ms returns 0
T4C94 000:380.928 JLINK_WriteReg(R7, 0x00000000)
T4C94 000:380.933 - 0.005ms returns 0
T4C94 000:380.939 JLINK_WriteReg(R8, 0x00000000)
T4C94 000:380.944 - 0.005ms returns 0
T4C94 000:380.949 JLINK_WriteReg(R9, 0x20000180)
T4C94 000:380.955 - 0.005ms returns 0
T4C94 000:380.960 JLINK_WriteReg(R10, 0x00000000)
T4C94 000:380.965 - 0.005ms returns 0
T4C94 000:380.971 JLINK_WriteReg(R11, 0x00000000)
T4C94 000:380.976 - 0.005ms returns 0
T4C94 000:380.982 JLINK_WriteReg(R12, 0x00000000)
T4C94 000:380.987 - 0.005ms returns 0
T4C94 000:380.993 JLINK_WriteReg(R13 (SP), 0x20001000)
T4C94 000:380.999 - 0.005ms returns 0
T4C94 000:381.004 JLINK_WriteReg(R14, 0x20000001)
T4C94 000:381.015 - 0.010ms returns 0
T4C94 000:381.020 JLINK_WriteReg(R15 (PC), 0x2000010C)
T4C94 000:381.026 - 0.005ms returns 0
T4C94 000:381.032 JLINK_WriteReg(XPSR, 0x01000000)
T4C94 000:381.037 - 0.005ms returns 0
T4C94 000:381.043 JLINK_WriteReg(MSP, 0x20001000)
T4C94 000:381.048 - 0.005ms returns 0
T4C94 000:381.054 JLINK_WriteReg(PSP, 0x20001000)
T4C94 000:381.059 - 0.005ms returns 0
T4C94 000:381.065 JLINK_WriteReg(CFBP, 0x00000000)
T4C94 000:381.070 - 0.005ms returns 0
T4C94 000:381.077 JLINK_SetBPEx(Addr = 0x20000000, Type = 0xFFFFFFF2)
T4C94 000:381.082 - 0.006ms returns 0x00000005
T4C94 000:381.088 JLINK_Go()
T4C94 000:381.098   CPU_ReadMem(4 bytes @ 0xE0001000)
T4C94 000:383.977 - 2.888ms
T4C94 000:384.002 JLINK_IsHalted()
T4C94 000:384.366 - 0.363ms returns FALSE
T4C94 000:384.388 JLINK_HasError()
T4C94 000:386.233 JLINK_IsHalted()
T4C94 000:386.622 - 0.388ms returns FALSE
T4C94 000:386.647 JLINK_HasError()
T4C94 000:388.232 JLINK_IsHalted()
T4C94 000:390.902   CPU_ReadMem(2 bytes @ 0x20000000)
T4C94 000:391.265 - 3.032ms returns TRUE
T4C94 000:391.296 JLINK_ReadReg(R15 (PC))
T4C94 000:391.305 - 0.009ms returns 0x20000000
T4C94 000:391.312 JLINK_ClrBPEx(BPHandle = 0x00000005)
T4C94 000:391.317 - 0.005ms returns 0x00
T4C94 000:391.324 JLINK_ReadReg(R0)
T4C94 000:391.329 - 0.005ms returns 0x00000000
T4C94 000:391.785 JLINK_WriteMem(0x20000184, 0x27C Bytes, ...)
T4C94 000:391.795   Data:  0D 0A 20 31 34 20 20 20 30 45 20 20 20 30 31 36 ...
T4C94 000:391.809   CPU_WriteMem(636 bytes @ 0x20000184)
T4C94 000:394.817 - 3.031ms returns 0x27C
T4C94 000:394.845 JLINK_WriteMem(0x20000400, 0x184 Bytes, ...)
T4C94 000:394.852   Data:  72 61 74 6F 72 29 0D 0A 20 33 31 20 20 20 31 46 ...
T4C94 000:394.863   CPU_WriteMem(388 bytes @ 0x20000400)
T4C94 000:396.818 - 1.973ms returns 0x184
T4C94 000:396.846 JLINK_HasError()
T4C94 000:396.854 JLINK_WriteReg(R0, 0x08001000)
T4C94 000:396.862 - 0.007ms returns 0
T4C94 000:396.869 JLINK_WriteReg(R1, 0x00000400)
T4C94 000:396.874 - 0.005ms returns 0
T4C94 000:396.881 JLINK_WriteReg(R2, 0x20000184)
T4C94 000:396.886 - 0.005ms returns 0
T4C94 000:396.893 JLINK_WriteReg(R3, 0x00000000)
T4C94 000:396.898 - 0.005ms returns 0
T4C94 000:396.904 JLINK_WriteReg(R4, 0x00000000)
T4C94 000:396.910 - 0.005ms returns 0
T4C94 000:396.917 JLINK_WriteReg(R5, 0x00000000)
T4C94 000:396.922 - 0.005ms returns 0
T4C94 000:396.928 JLINK_WriteReg(R6, 0x00000000)
T4C94 000:396.934 - 0.005ms returns 0
T4C94 000:396.940 JLINK_WriteReg(R7, 0x00000000)
T4C94 000:396.946 - 0.005ms returns 0
T4C94 000:396.952 JLINK_WriteReg(R8, 0x00000000)
T4C94 000:396.957 - 0.005ms returns 0
T4C94 000:396.964 JLINK_WriteReg(R9, 0x20000180)
T4C94 000:396.969 - 0.005ms returns 0
T4C94 000:396.976 JLINK_WriteReg(R10, 0x00000000)
T4C94 000:396.981 - 0.005ms returns 0
T4C94 000:396.988 JLINK_WriteReg(R11, 0x00000000)
T4C94 000:396.993 - 0.005ms returns 0
T4C94 000:396.999 JLINK_WriteReg(R12, 0x00000000)
T4C94 000:397.004 - 0.005ms returns 0
T4C94 000:397.011 JLINK_WriteReg(R13 (SP), 0x20001000)
T4C94 000:397.017 - 0.005ms returns 0
T4C94 000:397.023 JLINK_WriteReg(R14, 0x20000001)
T4C94 000:397.029 - 0.005ms returns 0
T4C94 000:397.035 JLINK_WriteReg(R15 (PC), 0x2000010C)
T4C94 000:397.040 - 0.005ms returns 0
T4C94 000:397.047 JLINK_WriteReg(XPSR, 0x01000000)
T4C94 000:397.052 - 0.005ms returns 0
T4C94 000:397.059 JLINK_WriteReg(MSP, 0x20001000)
T4C94 000:397.064 - 0.005ms returns 0
T4C94 000:397.071 JLINK_WriteReg(PSP, 0x20001000)
T4C94 000:397.076 - 0.005ms returns 0
T4C94 000:397.083 JLINK_WriteReg(CFBP, 0x00000000)
T4C94 000:397.088 - 0.005ms returns 0
T4C94 000:397.095 JLINK_SetBPEx(Addr = 0x20000000, Type = 0xFFFFFFF2)
T4C94 000:397.101 - 0.006ms returns 0x00000006
T4C94 000:397.108 JLINK_Go()
T4C94 000:397.119   CPU_ReadMem(4 bytes @ 0xE0001000)
T4C94 000:399.855 - 2.746ms
T4C94 000:399.877 JLINK_IsHalted()
T4C94 000:400.250 - 0.372ms returns FALSE
T4C94 000:400.274 JLINK_HasError()
T4C94 000:404.247 JLINK_IsHalted()
T4C94 000:407.017   CPU_ReadMem(2 bytes @ 0x20000000)
T4C94 000:407.372 - 3.124ms returns TRUE
T4C94 000:407.395 JLINK_ReadReg(R15 (PC))
T4C94 000:407.403 - 0.007ms returns 0x20000000
T4C94 000:407.409 JLINK_ClrBPEx(BPHandle = 0x00000006)
T4C94 000:407.414 - 0.005ms returns 0x00
T4C94 000:407.421 JLINK_ReadReg(R0)
T4C94 000:407.426 - 0.005ms returns 0x00000000
T4C94 000:407.833 JLINK_WriteMem(0x20000184, 0x27C Bytes, ...)
T4C94 000:407.842   Data:  36 31 20 20 31 0D 0A 20 35 30 20 20 20 33 32 20 ...
T4C94 000:407.854   CPU_WriteMem(636 bytes @ 0x20000184)
T4C94 000:410.940 - 3.107ms returns 0x27C
T4C94 000:410.966 JLINK_WriteMem(0x20000400, 0x184 Bytes, ...)
T4C94 000:410.972   Data:  33 20 20 20 35 33 20 20 20 31 32 33 20 20 53 0D ...
T4C94 000:410.984   CPU_WriteMem(388 bytes @ 0x20000400)
T4C94 000:412.931 - 1.965ms returns 0x184
T4C94 000:412.957 JLINK_HasError()
T4C94 000:412.965 JLINK_WriteReg(R0, 0x08001400)
T4C94 000:412.972 - 0.007ms returns 0
T4C94 000:412.979 JLINK_WriteReg(R1, 0x00000400)
T4C94 000:412.984 - 0.005ms returns 0
T4C94 000:412.990 JLINK_WriteReg(R2, 0x20000184)
T4C94 000:412.995 - 0.005ms returns 0
T4C94 000:413.001 JLINK_WriteReg(R3, 0x00000000)
T4C94 000:413.007 - 0.005ms returns 0
T4C94 000:413.012 JLINK_WriteReg(R4, 0x00000000)
T4C94 000:413.017 - 0.005ms returns 0
T4C94 000:413.023 JLINK_WriteReg(R5, 0x00000000)
T4C94 000:413.028 - 0.005ms returns 0
T4C94 000:413.034 JLINK_WriteReg(R6, 0x00000000)
T4C94 000:413.039 - 0.005ms returns 0
T4C94 000:413.045 JLINK_WriteReg(R7, 0x00000000)
T4C94 000:413.050 - 0.005ms returns 0
T4C94 000:413.055 JLINK_WriteReg(R8, 0x00000000)
T4C94 000:413.060 - 0.005ms returns 0
T4C94 000:413.066 JLINK_WriteReg(R9, 0x20000180)
T4C94 000:413.072 - 0.005ms returns 0
T4C94 000:413.077 JLINK_WriteReg(R10, 0x00000000)
T4C94 000:413.083 - 0.005ms returns 0
T4C94 000:413.088 JLINK_WriteReg(R11, 0x00000000)
T4C94 000:413.093 - 0.004ms returns 0
T4C94 000:413.099 JLINK_WriteReg(R12, 0x00000000)
T4C94 000:413.104 - 0.005ms returns 0
T4C94 000:413.110 JLINK_WriteReg(R13 (SP), 0x20001000)
T4C94 000:413.115 - 0.005ms returns 0
T4C94 000:413.121 JLINK_WriteReg(R14, 0x20000001)
T4C94 000:413.126 - 0.005ms returns 0
T4C94 000:413.132 JLINK_WriteReg(R15 (PC), 0x2000010C)
T4C94 000:413.137 - 0.005ms returns 0
T4C94 000:413.143 JLINK_WriteReg(XPSR, 0x01000000)
T4C94 000:413.148 - 0.005ms returns 0
T4C94 000:413.153 JLINK_WriteReg(MSP, 0x20001000)
T4C94 000:413.158 - 0.005ms returns 0
T4C94 000:413.164 JLINK_WriteReg(PSP, 0x20001000)
T4C94 000:413.169 - 0.005ms returns 0
T4C94 000:413.175 JLINK_WriteReg(CFBP, 0x00000000)
T4C94 000:413.180 - 0.005ms returns 0
T4C94 000:413.186 JLINK_SetBPEx(Addr = 0x20000000, Type = 0xFFFFFFF2)
T4C94 000:413.192 - 0.006ms returns 0x00000007
T4C94 000:413.198 JLINK_Go()
T4C94 000:413.208   CPU_ReadMem(4 bytes @ 0xE0001000)
T4C94 000:415.989 - 2.791ms
T4C94 000:416.016 JLINK_IsHalted()
T4C94 000:416.382 - 0.365ms returns FALSE
T4C94 000:416.405 JLINK_HasError()
T4C94 000:418.364 JLINK_IsHalted()
T4C94 000:418.759 - 0.394ms returns FALSE
T4C94 000:418.783 JLINK_HasError()
T4C94 000:420.367 JLINK_IsHalted()
T4C94 000:423.136   CPU_ReadMem(2 bytes @ 0x20000000)
T4C94 000:423.564 - 3.197ms returns TRUE
T4C94 000:423.588 JLINK_ReadReg(R15 (PC))
T4C94 000:423.595 - 0.007ms returns 0x20000000
T4C94 000:423.601 JLINK_ClrBPEx(BPHandle = 0x00000007)
T4C94 000:423.607 - 0.005ms returns 0x00
T4C94 000:423.613 JLINK_ReadReg(R0)
T4C94 000:423.618 - 0.005ms returns 0x00000000
T4C94 000:424.021 JLINK_WriteMem(0x20000184, 0x27C Bytes, ...)
T4C94 000:424.030   Data:  20 31 34 37 20 20 67 0D 0A 31 30 34 20 20 20 36 ...
T4C94 000:424.042   CPU_WriteMem(636 bytes @ 0x20000184)
T4C94 000:427.077 - 3.056ms returns 0x27C
T4C94 000:427.106 JLINK_WriteMem(0x20000400, 0x184 Bytes, ...)
T4C94 000:427.113   Data:  20 33 20 20 20 30 33 20 20 20 30 30 33 20 20 45 ...
T4C94 000:427.125   CPU_WriteMem(388 bytes @ 0x20000400)
T4C94 000:429.005 - 1.899ms returns 0x184
T4C94 000:429.032 JLINK_HasError()
T4C94 000:429.044 JLINK_WriteReg(R0, 0x08001800)
T4C94 000:429.053 - 0.008ms returns 0
T4C94 000:429.060 JLINK_WriteReg(R1, 0x00000400)
T4C94 000:429.065 - 0.005ms returns 0
T4C94 000:429.072 JLINK_WriteReg(R2, 0x20000184)
T4C94 000:429.077 - 0.005ms returns 0
T4C94 000:429.083 JLINK_WriteReg(R3, 0x00000000)
T4C94 000:429.089 - 0.005ms returns 0
T4C94 000:429.095 JLINK_WriteReg(R4, 0x00000000)
T4C94 000:429.101 - 0.005ms returns 0
T4C94 000:429.108 JLINK_WriteReg(R5, 0x00000000)
T4C94 000:429.113 - 0.005ms returns 0
T4C94 000:429.120 JLINK_WriteReg(R6, 0x00000000)
T4C94 000:429.125 - 0.005ms returns 0
T4C94 000:429.131 JLINK_WriteReg(R7, 0x00000000)
T4C94 000:429.136 - 0.005ms returns 0
T4C94 000:429.143 JLINK_WriteReg(R8, 0x00000000)
T4C94 000:429.148 - 0.005ms returns 0
T4C94 000:429.155 JLINK_WriteReg(R9, 0x20000180)
T4C94 000:429.160 - 0.005ms returns 0
T4C94 000:429.167 JLINK_WriteReg(R10, 0x00000000)
T4C94 000:429.172 - 0.005ms returns 0
T4C94 000:429.179 JLINK_WriteReg(R11, 0x00000000)
T4C94 000:429.184 - 0.005ms returns 0
T4C94 000:429.190 JLINK_WriteReg(R12, 0x00000000)
T4C94 000:429.195 - 0.005ms returns 0
T4C94 000:429.202 JLINK_WriteReg(R13 (SP), 0x20001000)
T4C94 000:429.208 - 0.005ms returns 0
T4C94 000:429.214 JLINK_WriteReg(R14, 0x20000001)
T4C94 000:429.219 - 0.005ms returns 0
T4C94 000:429.226 JLINK_WriteReg(R15 (PC), 0x2000010C)
T4C94 000:429.231 - 0.005ms returns 0
T4C94 000:429.238 JLINK_WriteReg(XPSR, 0x01000000)
T4C94 000:429.244 - 0.005ms returns 0
T4C94 000:429.250 JLINK_WriteReg(MSP, 0x20001000)
T4C94 000:429.255 - 0.005ms returns 0
T4C94 000:429.262 JLINK_WriteReg(PSP, 0x20001000)
T4C94 000:429.267 - 0.005ms returns 0
T4C94 000:429.274 JLINK_WriteReg(CFBP, 0x00000000)
T4C94 000:429.279 - 0.005ms returns 0
T4C94 000:429.286 JLINK_SetBPEx(Addr = 0x20000000, Type = 0xFFFFFFF2)
T4C94 000:429.292 - 0.006ms returns 0x00000008
T4C94 000:429.299 JLINK_Go()
T4C94 000:429.309   CPU_ReadMem(4 bytes @ 0xE0001000)
T4C94 000:431.982 - 2.683ms
T4C94 000:432.009 JLINK_IsHalted()
T4C94 000:432.279 - 0.269ms returns FALSE
T4C94 000:432.304 JLINK_HasError()
T4C94 000:433.378 JLINK_IsHalted()
T4C94 000:433.737 - 0.357ms returns FALSE
T4C94 000:433.763 JLINK_HasError()
T4C94 000:435.380 JLINK_IsHalted()
T4C94 000:435.740 - 0.360ms returns FALSE
T4C94 000:435.765 JLINK_HasError()
T4C94 000:437.382 JLINK_IsHalted()
T4C94 000:440.053   CPU_ReadMem(2 bytes @ 0x20000000)
T4C94 000:440.383 - 3.000ms returns TRUE
T4C94 000:440.407 JLINK_ReadReg(R15 (PC))
T4C94 000:440.416 - 0.007ms returns 0x20000000
T4C94 000:440.422 JLINK_ClrBPEx(BPHandle = 0x00000008)
T4C94 000:440.428 - 0.005ms returns 0x00
T4C94 000:440.434 JLINK_ReadReg(R0)
T4C94 000:440.439 - 0.005ms returns 0x00000000
T4C94 000:440.881 JLINK_WriteMem(0x20000184, 0x27C Bytes, ...)
T4C94 000:440.891   Data:  72 69 61 67 65 20 52 65 74 75 72 6E 29 0D 0A 20 ...
T4C94 000:440.903   CPU_WriteMem(636 bytes @ 0x20000184)
T4C94 000:443.951 - 3.070ms returns 0x27C
T4C94 000:443.977 JLINK_WriteMem(0x20000400, 0x184 Bytes, ...)
T4C94 000:443.983   Data:  20 28 52 65 63 6F 72 64 20 53 65 70 61 72 61 74 ...
T4C94 000:443.995   CPU_WriteMem(388 bytes @ 0x20000400)
T4C94 000:445.940 - 1.963ms returns 0x184
T4C94 000:445.966 JLINK_HasError()
T4C94 000:445.973 JLINK_WriteReg(R0, 0x08001C00)
T4C94 000:445.980 - 0.007ms returns 0
T4C94 000:445.986 JLINK_WriteReg(R1, 0x00000400)
T4C94 000:445.991 - 0.005ms returns 0
T4C94 000:445.997 JLINK_WriteReg(R2, 0x20000184)
T4C94 000:446.002 - 0.005ms returns 0
T4C94 000:446.008 JLINK_WriteReg(R3, 0x00000000)
T4C94 000:446.013 - 0.005ms returns 0
T4C94 000:446.019 JLINK_WriteReg(R4, 0x00000000)
T4C94 000:446.024 - 0.005ms returns 0
T4C94 000:446.030 JLINK_WriteReg(R5, 0x00000000)
T4C94 000:446.035 - 0.005ms returns 0
T4C94 000:446.041 JLINK_WriteReg(R6, 0x00000000)
T4C94 000:446.046 - 0.005ms returns 0
T4C94 000:446.052 JLINK_WriteReg(R7, 0x00000000)
T4C94 000:446.057 - 0.005ms returns 0
T4C94 000:446.063 JLINK_WriteReg(R8, 0x00000000)
T4C94 000:446.068 - 0.005ms returns 0
T4C94 000:446.078 JLINK_WriteReg(R9, 0x20000180)
T4C94 000:446.083 - 0.005ms returns 0
T4C94 000:446.089 JLINK_WriteReg(R10, 0x00000000)
T4C94 000:446.094 - 0.005ms returns 0
T4C94 000:446.099 JLINK_WriteReg(R11, 0x00000000)
T4C94 000:446.105 - 0.005ms returns 0
T4C94 000:446.110 JLINK_WriteReg(R12, 0x00000000)
T4C94 000:446.115 - 0.005ms returns 0
T4C94 000:446.121 JLINK_WriteReg(R13 (SP), 0x20001000)
T4C94 000:446.127 - 0.005ms returns 0
T4C94 000:446.132 JLINK_WriteReg(R14, 0x20000001)
T4C94 000:446.137 - 0.005ms returns 0
T4C94 000:446.143 JLINK_WriteReg(R15 (PC), 0x2000010C)
T4C94 000:446.148 - 0.005ms returns 0
T4C94 000:446.154 JLINK_WriteReg(XPSR, 0x01000000)
T4C94 000:446.159 - 0.005ms returns 0
T4C94 000:446.165 JLINK_WriteReg(MSP, 0x20001000)
T4C94 000:446.170 - 0.005ms returns 0
T4C94 000:446.176 JLINK_WriteReg(PSP, 0x20001000)
T4C94 000:446.181 - 0.005ms returns 0
T4C94 000:446.186 JLINK_WriteReg(CFBP, 0x00000000)
T4C94 000:446.191 - 0.005ms returns 0
T4C94 000:446.198 JLINK_SetBPEx(Addr = 0x20000000, Type = 0xFFFFFFF2)
T4C94 000:446.203 - 0.005ms returns 0x00000009
T4C94 000:446.210 JLINK_Go()
T4C94 000:446.219   CPU_ReadMem(4 bytes @ 0xE0001000)
T4C94 000:448.943 - 2.733ms
T4C94 000:448.970 JLINK_IsHalted()
T4C94 000:449.255 - 0.284ms returns FALSE
T4C94 000:449.277 JLINK_HasError()
T4C94 000:452.591 JLINK_IsHalted()
T4C94 000:453.003 - 0.411ms returns FALSE
T4C94 000:453.030 JLINK_HasError()
T4C94 000:454.591 JLINK_IsHalted()
T4C94 000:457.392   CPU_ReadMem(2 bytes @ 0x20000000)
T4C94 000:457.760 - 3.169ms returns TRUE
T4C94 000:457.788 JLINK_ReadReg(R15 (PC))
T4C94 000:457.796 - 0.007ms returns 0x20000000
T4C94 000:457.803 JLINK_ClrBPEx(BPHandle = 0x00000009)
T4C94 000:457.809 - 0.005ms returns 0x00
T4C94 000:457.816 JLINK_ReadReg(R0)
T4C94 000:457.822 - 0.005ms returns 0x00000000
T4C94 000:458.234 JLINK_WriteMem(0x20000184, 0x27C Bytes, ...)
T4C94 000:458.243   Data:  0A 20 34 39 20 20 20 33 31 20 20 20 30 36 31 20 ...
T4C94 000:458.255   CPU_WriteMem(636 bytes @ 0x20000184)
T4C94 000:461.321 - 3.087ms returns 0x27C
T4C94 000:461.350 JLINK_WriteMem(0x20000400, 0x184 Bytes, ...)
T4C94 000:461.357   Data:  20 20 20 31 32 32 20 20 52 0D 0A 20 38 33 20 20 ...
T4C94 000:461.371   CPU_WriteMem(388 bytes @ 0x20000400)
T4C94 000:463.354 - 2.003ms returns 0x184
T4C94 000:463.383 JLINK_HasError()
T4C94 000:463.391 JLINK_WriteReg(R0, 0x08002000)
T4C94 000:463.398 - 0.006ms returns 0
T4C94 000:463.404 JLINK_WriteReg(R1, 0x00000400)
T4C94 000:463.410 - 0.005ms returns 0
T4C94 000:463.415 JLINK_WriteReg(R2, 0x20000184)
T4C94 000:463.421 - 0.005ms returns 0
T4C94 000:463.427 JLINK_WriteReg(R3, 0x00000000)
T4C94 000:463.432 - 0.005ms returns 0
T4C94 000:463.438 JLINK_WriteReg(R4, 0x00000000)
T4C94 000:463.443 - 0.005ms returns 0
T4C94 000:463.449 JLINK_WriteReg(R5, 0x00000000)
T4C94 000:463.454 - 0.005ms returns 0
T4C94 000:463.460 JLINK_WriteReg(R6, 0x00000000)
T4C94 000:463.465 - 0.005ms returns 0
T4C94 000:463.471 JLINK_WriteReg(R7, 0x00000000)
T4C94 000:463.476 - 0.005ms returns 0
T4C94 000:463.482 JLINK_WriteReg(R8, 0x00000000)
T4C94 000:463.487 - 0.005ms returns 0
T4C94 000:463.493 JLINK_WriteReg(R9, 0x20000180)
T4C94 000:463.498 - 0.005ms returns 0
T4C94 000:463.503 JLINK_WriteReg(R10, 0x00000000)
T4C94 000:463.509 - 0.005ms returns 0
T4C94 000:463.514 JLINK_WriteReg(R11, 0x00000000)
T4C94 000:463.519 - 0.005ms returns 0
T4C94 000:463.525 JLINK_WriteReg(R12, 0x00000000)
T4C94 000:463.530 - 0.005ms returns 0
T4C94 000:463.537 JLINK_WriteReg(R13 (SP), 0x20001000)
T4C94 000:463.542 - 0.005ms returns 0
T4C94 000:463.548 JLINK_WriteReg(R14, 0x20000001)
T4C94 000:463.553 - 0.005ms returns 0
T4C94 000:463.559 JLINK_WriteReg(R15 (PC), 0x2000010C)
T4C94 000:463.564 - 0.005ms returns 0
T4C94 000:463.569 JLINK_WriteReg(XPSR, 0x01000000)
T4C94 000:463.575 - 0.005ms returns 0
T4C94 000:463.581 JLINK_WriteReg(MSP, 0x20001000)
T4C94 000:463.586 - 0.005ms returns 0
T4C94 000:463.592 JLINK_WriteReg(PSP, 0x20001000)
T4C94 000:463.615 - 0.022ms returns 0
T4C94 000:463.624 JLINK_WriteReg(CFBP, 0x00000000)
T4C94 000:463.631 - 0.006ms returns 0
T4C94 000:463.638 JLINK_SetBPEx(Addr = 0x20000000, Type = 0xFFFFFFF2)
T4C94 000:463.644 - 0.006ms returns 0x0000000A
T4C94 000:463.650 JLINK_Go()
T4C94 000:463.661   CPU_ReadMem(4 bytes @ 0xE0001000)
T4C94 000:466.345 - 2.694ms
T4C94 000:466.369 JLINK_IsHalted()
T4C94 000:466.757 - 0.387ms returns FALSE
T4C94 000:466.780 JLINK_HasError()
T4C94 000:468.605 JLINK_IsHalted()
T4C94 000:469.006 - 0.400ms returns FALSE
T4C94 000:469.030 JLINK_HasError()
T4C94 000:470.607 JLINK_IsHalted()
T4C94 000:473.397   CPU_ReadMem(2 bytes @ 0x20000000)
T4C94 000:473.774 - 3.166ms returns TRUE
T4C94 000:473.803 JLINK_ReadReg(R15 (PC))
T4C94 000:473.812 - 0.009ms returns 0x20000000
T4C94 000:473.818 JLINK_ClrBPEx(BPHandle = 0x0000000A)
T4C94 000:473.824 - 0.005ms returns 0x00
T4C94 000:473.830 JLINK_ReadReg(R0)
T4C94 000:473.835 - 0.005ms returns 0x00000000
T4C94 000:474.299 JLINK_WriteMem(0x20000184, 0x27C Bytes, ...)
T4C94 000:474.309   Data:  66 0D 0A 31 30 33 20 20 20 36 37 20 20 20 31 34 ...
T4C94 000:474.322   CPU_WriteMem(636 bytes @ 0x20000184)
T4C94 000:477.319 - 3.019ms returns 0x27C
T4C94 000:477.348 JLINK_WriteMem(0x20000400, 0x184 Bytes, ...)
T4C94 000:477.354   Data:  74 20 6F 66 20 54 65 78 74 29 0D 0A 20 20 33 20 ...
T4C94 000:477.367   CPU_WriteMem(388 bytes @ 0x20000400)
T4C94 000:479.349 - 2.001ms returns 0x184
T4C94 000:479.376 JLINK_HasError()
T4C94 000:479.384 JLINK_WriteReg(R0, 0x08002400)
T4C94 000:479.391 - 0.007ms returns 0
T4C94 000:479.397 JLINK_WriteReg(R1, 0x00000400)
T4C94 000:479.403 - 0.005ms returns 0
T4C94 000:479.409 JLINK_WriteReg(R2, 0x20000184)
T4C94 000:479.414 - 0.005ms returns 0
T4C94 000:479.420 JLINK_WriteReg(R3, 0x00000000)
T4C94 000:479.425 - 0.005ms returns 0
T4C94 000:479.431 JLINK_WriteReg(R4, 0x00000000)
T4C94 000:479.437 - 0.005ms returns 0
T4C94 000:479.443 JLINK_WriteReg(R5, 0x00000000)
T4C94 000:479.448 - 0.005ms returns 0
T4C94 000:479.456 JLINK_WriteReg(R6, 0x00000000)
T4C94 000:479.464 - 0.005ms returns 0
T4C94 000:479.470 JLINK_WriteReg(R7, 0x00000000)
T4C94 000:479.476 - 0.005ms returns 0
T4C94 000:479.482 JLINK_WriteReg(R8, 0x00000000)
T4C94 000:479.487 - 0.005ms returns 0
T4C94 000:479.493 JLINK_WriteReg(R9, 0x20000180)
T4C94 000:479.498 - 0.005ms returns 0
T4C94 000:479.504 JLINK_WriteReg(R10, 0x00000000)
T4C94 000:479.510 - 0.005ms returns 0
T4C94 000:479.516 JLINK_WriteReg(R11, 0x00000000)
T4C94 000:479.521 - 0.005ms returns 0
T4C94 000:479.527 JLINK_WriteReg(R12, 0x00000000)
T4C94 000:479.532 - 0.005ms returns 0
T4C94 000:479.538 JLINK_WriteReg(R13 (SP), 0x20001000)
T4C94 000:479.543 - 0.005ms returns 0
T4C94 000:479.549 JLINK_WriteReg(R14, 0x20000001)
T4C94 000:479.554 - 0.005ms returns 0
T4C94 000:479.560 JLINK_WriteReg(R15 (PC), 0x2000010C)
T4C94 000:479.566 - 0.005ms returns 0
T4C94 000:479.572 JLINK_WriteReg(XPSR, 0x01000000)
T4C94 000:479.577 - 0.005ms returns 0
T4C94 000:479.583 JLINK_WriteReg(MSP, 0x20001000)
T4C94 000:479.588 - 0.005ms returns 0
T4C94 000:479.594 JLINK_WriteReg(PSP, 0x20001000)
T4C94 000:479.599 - 0.005ms returns 0
T4C94 000:479.605 JLINK_WriteReg(CFBP, 0x00000000)
T4C94 000:479.611 - 0.005ms returns 0
T4C94 000:479.617 JLINK_SetBPEx(Addr = 0x20000000, Type = 0xFFFFFFF2)
T4C94 000:479.623 - 0.006ms returns 0x0000000B
T4C94 000:479.629 JLINK_Go()
T4C94 000:479.640   CPU_ReadMem(4 bytes @ 0xE0001000)
T4C94 000:482.353 - 2.723ms
T4C94 000:482.375 JLINK_IsHalted()
T4C94 000:482.643 - 0.267ms returns FALSE
T4C94 000:482.671 JLINK_HasError()
T4C94 000:484.463 JLINK_IsHalted()
T4C94 000:484.759 - 0.295ms returns FALSE
T4C94 000:484.779 JLINK_HasError()
T4C94 000:486.469 JLINK_IsHalted()
T4C94 000:489.273   CPU_ReadMem(2 bytes @ 0x20000000)
T4C94 000:489.569 - 3.100ms returns TRUE
T4C94 000:489.590 JLINK_ReadReg(R15 (PC))
T4C94 000:489.598 - 0.007ms returns 0x20000000
T4C94 000:489.604 JLINK_ClrBPEx(BPHandle = 0x0000000B)
T4C94 000:489.610 - 0.005ms returns 0x00
T4C94 000:489.619 JLINK_ReadReg(R0)
T4C94 000:489.627 - 0.007ms returns 0x00000000
T4C94 000:490.077 JLINK_WriteMem(0x20000184, 0x27C Bytes, ...)
T4C94 000:490.086   Data:  30 31 35 20 20 43 52 20 20 28 43 61 72 72 69 61 ...
T4C94 000:490.098   CPU_WriteMem(636 bytes @ 0x20000184)
T4C94 000:493.074 - 2.997ms returns 0x27C
T4C94 000:493.102 JLINK_WriteMem(0x20000400, 0x184 Bytes, ...)
T4C94 000:493.109   Data:  31 45 20 20 20 30 33 36 20 20 52 53 20 20 28 52 ...
T4C94 000:493.121   CPU_WriteMem(388 bytes @ 0x20000400)
T4C94 000:495.014 - 1.911ms returns 0x184
T4C94 000:495.040 JLINK_HasError()
T4C94 000:495.047 JLINK_WriteReg(R0, 0x08002800)
T4C94 000:495.054 - 0.006ms returns 0
T4C94 000:495.060 JLINK_WriteReg(R1, 0x00000400)
T4C94 000:495.066 - 0.005ms returns 0
T4C94 000:495.071 JLINK_WriteReg(R2, 0x20000184)
T4C94 000:495.077 - 0.005ms returns 0
T4C94 000:495.082 JLINK_WriteReg(R3, 0x00000000)
T4C94 000:495.088 - 0.005ms returns 0
T4C94 000:495.093 JLINK_WriteReg(R4, 0x00000000)
T4C94 000:495.098 - 0.005ms returns 0
T4C94 000:495.104 JLINK_WriteReg(R5, 0x00000000)
T4C94 000:495.109 - 0.005ms returns 0
T4C94 000:495.115 JLINK_WriteReg(R6, 0x00000000)
T4C94 000:495.120 - 0.005ms returns 0
T4C94 000:495.126 JLINK_WriteReg(R7, 0x00000000)
T4C94 000:495.131 - 0.005ms returns 0
T4C94 000:495.137 JLINK_WriteReg(R8, 0x00000000)
T4C94 000:495.142 - 0.005ms returns 0
T4C94 000:495.148 JLINK_WriteReg(R9, 0x20000180)
T4C94 000:495.153 - 0.005ms returns 0
T4C94 000:495.159 JLINK_WriteReg(R10, 0x00000000)
T4C94 000:495.164 - 0.005ms returns 0
T4C94 000:495.170 JLINK_WriteReg(R11, 0x00000000)
T4C94 000:495.175 - 0.005ms returns 0
T4C94 000:495.181 JLINK_WriteReg(R12, 0x00000000)
T4C94 000:495.186 - 0.005ms returns 0
T4C94 000:495.192 JLINK_WriteReg(R13 (SP), 0x20001000)
